time	V(b1)	V(b2)	V(b3)	V(vb)
0.000000000000000e+000	2.027891e+000	2.087224e+000	2.088738e+000	3.000000e+000
2.947295999671402e-007	2.027889e+000	2.087223e+000	2.088736e+000	3.000000e+000
5.894591999342804e-007	2.027886e+000	2.087221e+000	2.088732e+000	3.000000e+000
8.841887999014206e-007	2.027882e+000	2.087219e+000	2.088727e+000	3.000000e+000
1.178918399868561e-006	2.027878e+000	2.087215e+000	2.088721e+000	3.000000e+000
1.473647999835701e-006	2.027873e+000	2.087211e+000	2.088713e+000	3.000000e+000
1.768377599802841e-006	2.027868e+000	2.087207e+000	2.088703e+000	3.000000e+000
2.063107199769981e-006	2.027863e+000	2.087202e+000	2.088692e+000	3.000000e+000
2.823107199769973e-006	2.027856e+000	2.087185e+000	2.088663e+000	3.000000e+000
3.088821485484257e-006	2.027856e+000	2.087178e+000	2.088652e+000	3.000000e+000
3.354535771198540e-006	2.027857e+000	2.087170e+000	2.088642e+000	3.000000e+000
3.620250056912824e-006	2.027858e+000	2.087160e+000	2.088634e+000	3.000000e+000
3.885964342627107e-006	2.027859e+000	2.087150e+000	2.088627e+000	3.000000e+000
4.151678628341390e-006	2.027861e+000	2.087137e+000	2.088621e+000	3.000000e+000
4.417392914055674e-006	2.027863e+000	2.087124e+000	2.088616e+000	3.000000e+000
4.683107199769956e-006	2.027865e+000	2.087110e+000	2.088613e+000	3.000000e+000
4.844535771198526e-006	2.027866e+000	2.087100e+000	2.088613e+000	3.000000e+000
5.005964342627096e-006	2.027866e+000	2.087090e+000	2.088614e+000	3.000000e+000
5.167392914055666e-006	2.027864e+000	2.087080e+000	2.088616e+000	3.000000e+000
5.328821485484236e-006	2.027862e+000	2.087071e+000	2.088618e+000	3.000000e+000
5.490250056912806e-006	2.027859e+000	2.087061e+000	2.088622e+000	3.000000e+000
5.651678628341376e-006	2.027854e+000	2.087051e+000	2.088628e+000	3.000000e+000
5.813107199769945e-006	2.027849e+000	2.087040e+000	2.088634e+000	3.000000e+000
5.823107199769945e-006	2.027848e+000	2.087040e+000	2.088634e+000	3.000000e+000
6.024535771198515e-006	2.027839e+000	2.087027e+000	2.088644e+000	3.000000e+000
6.225964342627085e-006	2.027827e+000	2.087016e+000	2.088655e+000	3.000000e+000
6.427392914055653e-006	2.027811e+000	2.087008e+000	2.088667e+000	3.000000e+000
6.628821485484223e-006	2.027792e+000	2.087001e+000	2.088679e+000	3.000000e+000
6.830250056912793e-006	2.027770e+000	2.086996e+000	2.088692e+000	3.000000e+000
7.031678628341363e-006	2.027745e+000	2.086993e+000	2.088705e+000	3.000000e+000
7.233107199769932e-006	2.027716e+000	2.086992e+000	2.088719e+000	3.000000e+000
7.403107199769930e-006	2.027689e+000	2.086995e+000	2.088730e+000	3.000000e+000
7.573107199769928e-006	2.027660e+000	2.087000e+000	2.088739e+000	3.000000e+000
7.743107199769927e-006	2.027630e+000	2.087009e+000	2.088745e+000	3.000000e+000
7.913107199769925e-006	2.027599e+000	2.087021e+000	2.088749e+000	3.000000e+000
8.083107199769923e-006	2.027567e+000	2.087035e+000	2.088751e+000	3.000000e+000
8.253107199769922e-006	2.027534e+000	2.087053e+000	2.088750e+000	3.000000e+000
8.423107199769920e-006	2.027500e+000	2.087074e+000	2.088746e+000	3.000000e+000
8.478821485484205e-006	2.027489e+000	2.087082e+000	2.088744e+000	3.000000e+000
8.534535771198491e-006	2.027479e+000	2.087090e+000	2.088741e+000	3.000000e+000
8.590250056912775e-006	2.027469e+000	2.087098e+000	2.088737e+000	3.000000e+000
8.645964342627061e-006	2.027458e+000	2.087107e+000	2.088733e+000	3.000000e+000
8.701678628341346e-006	2.027448e+000	2.087116e+000	2.088729e+000	3.000000e+000
8.757392914055632e-006	2.027439e+000	2.087125e+000	2.088724e+000	3.000000e+000
8.813107199769916e-006	2.027429e+000	2.087135e+000	2.088718e+000	3.000000e+000
8.823107199769916e-006	2.027427e+000	2.087137e+000	2.088717e+000	3.000000e+000
8.978821485484200e-006	2.027401e+000	2.087166e+000	2.088698e+000	3.000000e+000
9.134535771198485e-006	2.027379e+000	2.087197e+000	2.088673e+000	3.000000e+000
9.290250056912769e-006	2.027363e+000	2.087228e+000	2.088644e+000	3.000000e+000
9.445964342627054e-006	2.027352e+000	2.087261e+000	2.088609e+000	3.000000e+000
9.601678628341337e-006	2.027347e+000	2.087294e+000	2.088568e+000	3.000000e+000
9.757392914055622e-006	2.027346e+000	2.087328e+000	2.088522e+000	3.000000e+000
9.913107199769906e-006	2.027351e+000	2.087363e+000	2.088471e+000	3.000000e+000
1.005167862834133e-005	2.027363e+000	2.087393e+000	2.088419e+000	3.000000e+000
1.019025005691276e-005	2.027383e+000	2.087420e+000	2.088365e+000	3.000000e+000
1.032882148548419e-005	2.027411e+000	2.087444e+000	2.088307e+000	3.000000e+000
1.046739291405562e-005	2.027447e+000	2.087465e+000	2.088247e+000	3.000000e+000
1.060596434262704e-005	2.027492e+000	2.087482e+000	2.088183e+000	3.000000e+000
1.074453577119847e-005	2.027544e+000	2.087495e+000	2.088117e+000	3.000000e+000
1.088310719976990e-005	2.027605e+000	2.087505e+000	2.088047e+000	3.000000e+000
1.100882148548418e-005	2.027670e+000	2.087509e+000	2.087982e+000	3.000000e+000
1.113453577119847e-005	2.027741e+000	2.087506e+000	2.087920e+000	3.000000e+000
1.126025005691275e-005	2.027820e+000	2.087496e+000	2.087859e+000	3.000000e+000
1.138596434262704e-005	2.027905e+000	2.087478e+000	2.087801e+000	3.000000e+000
1.151167862834132e-005	2.027998e+000	2.087454e+000	2.087744e+000	3.000000e+000
1.163739291405560e-005	2.028098e+000	2.087423e+000	2.087690e+000	3.000000e+000
1.176310719976989e-005	2.028204e+000	2.087385e+000	2.087637e+000	3.000000e+000
1.182310719976989e-005	2.028257e+000	2.087363e+000	2.087615e+000	3.000000e+000
1.194882148548417e-005	2.028374e+000	2.087310e+000	2.087571e+000	3.000000e+000
1.207453577119846e-005	2.028491e+000	2.087248e+000	2.087536e+000	3.000000e+000
1.220025005691274e-005	2.028611e+000	2.087176e+000	2.087512e+000	3.000000e+000
1.232596434262703e-005	2.028731e+000	2.087094e+000	2.087498e+000	3.000000e+000
1.245167862834131e-005	2.028853e+000	2.087003e+000	2.087494e+000	3.000000e+000
1.257739291405560e-005	2.028976e+000	2.086901e+000	2.087500e+000	3.000000e+000
1.270310719976988e-005	2.029100e+000	2.086790e+000	2.087516e+000	3.000000e+000
1.282025005691274e-005	2.029214e+000	2.086676e+000	2.087545e+000	3.000000e+000
1.293739291405559e-005	2.029318e+000	2.086556e+000	2.087590e+000	3.000000e+000
1.305453577119845e-005	2.029413e+000	2.086429e+000	2.087650e+000	3.000000e+000
1.317167862834130e-005	2.029498e+000	2.086296e+000	2.087725e+000	3.000000e+000
1.328882148548416e-005	2.029574e+000	2.086156e+000	2.087816e+000	3.000000e+000
1.340596434262702e-005	2.029641e+000	2.086010e+000	2.087922e+000	3.000000e+000
1.352310719976987e-005	2.029698e+000	2.085857e+000	2.088044e+000	3.000000e+000
1.363739291405559e-005	2.029738e+000	2.085703e+000	2.088182e+000	3.000000e+000
1.375167862834130e-005	2.029757e+000	2.085551e+000	2.088336e+000	3.000000e+000
1.386596434262701e-005	2.029754e+000	2.085401e+000	2.088507e+000	3.000000e+000
1.398025005691272e-005	2.029729e+000	2.085253e+000	2.088694e+000	3.000000e+000
1.409453577119844e-005	2.029682e+000	2.085106e+000	2.088898e+000	3.000000e+000
1.420882148548415e-005	2.029613e+000	2.084961e+000	2.089119e+000	3.000000e+000
1.432310719976986e-005	2.029522e+000	2.084818e+000	2.089356e+000	3.000000e+000
1.439310719976986e-005	2.029451e+000	2.084736e+000	2.089509e+000	3.000000e+000
1.446310719976986e-005	2.029368e+000	2.084658e+000	2.089667e+000	3.000000e+000
1.453310719976986e-005	2.029273e+000	2.084585e+000	2.089829e+000	3.000000e+000
1.460310719976986e-005	2.029167e+000	2.084517e+000	2.089995e+000	3.000000e+000
1.467310719976986e-005	2.029049e+000	2.084453e+000	2.090167e+000	3.000000e+000
1.474310719976986e-005	2.028919e+000	2.084395e+000	2.090342e+000	3.000000e+000
1.481310719976986e-005	2.028777e+000	2.084341e+000	2.090523e+000	3.000000e+000
1.482310719976986e-005	2.028756e+000	2.084334e+000	2.090548e+000	3.000000e+000
1.493310719976987e-005	2.028504e+000	2.084261e+000	2.090843e+000	3.000000e+000
1.504310719976987e-005	2.028219e+000	2.084213e+000	2.091138e+000	3.000000e+000
1.515310719976988e-005	2.027903e+000	2.084189e+000	2.091432e+000	3.000000e+000
1.526310719976989e-005	2.027555e+000	2.084189e+000	2.091725e+000	3.000000e+000
1.537310719976989e-005	2.027174e+000	2.084214e+000	2.092017e+000	3.000000e+000
1.548310719976990e-005	2.026762e+000	2.084264e+000	2.092309e+000	3.000000e+000
1.559310719976991e-005	2.026317e+000	2.084338e+000	2.092600e+000	3.000000e+000
1.569739291405564e-005	2.025864e+000	2.084439e+000	2.092868e+000	3.000000e+000
1.580167862834137e-005	2.025390e+000	2.084575e+000	2.093114e+000	3.000000e+000
1.590596434262710e-005	2.024895e+000	2.084745e+000	2.093338e+000	3.000000e+000
1.601025005691283e-005	2.024381e+000	2.084948e+000	2.093541e+000	3.000000e+000
1.611453577119856e-005	2.023846e+000	2.085186e+000	2.093721e+000	3.000000e+000
1.621882148548430e-005	2.023291e+000	2.085459e+000	2.093880e+000	3.000000e+000
1.632310719977003e-005	2.022715e+000	2.085765e+000	2.094018e+000	3.000000e+000
1.642882148548433e-005	2.022115e+000	2.086118e+000	2.094122e+000	3.000000e+000
1.653453577119863e-005	2.021521e+000	2.086510e+000	2.094177e+000	3.000000e+000
1.664025005691293e-005	2.020934e+000	2.086941e+000	2.094181e+000	3.000000e+000
1.674596434262724e-005	2.020352e+000	2.087411e+000	2.094136e+000	3.000000e+000
1.685167862834154e-005	2.019778e+000	2.087919e+000	2.094041e+000	3.000000e+000
1.695739291405584e-005	2.019209e+000	2.088467e+000	2.093896e+000	3.000000e+000
1.706310719977014e-005	2.018646e+000	2.089054e+000	2.093700e+000	3.000000e+000
1.716453577119873e-005	2.018129e+000	2.089656e+000	2.093450e+000	3.000000e+000
1.726596434262732e-005	2.017659e+000	2.090281e+000	2.093131e+000	3.000000e+000
1.736739291405591e-005	2.017237e+000	2.090931e+000	2.092743e+000	3.000000e+000
1.746882148548450e-005	2.016863e+000	2.091604e+000	2.092288e+000	3.000000e+000
1.757025005691308e-005	2.016537e+000	2.092301e+000	2.091764e+000	3.000000e+000
1.767167862834167e-005	2.016259e+000	2.093022e+000	2.091173e+000	3.000000e+000
1.777310719977026e-005	2.016029e+000	2.093766e+000	2.090513e+000	3.000000e+000
1.782310719977027e-005	2.015950e+000	2.094133e+000	2.090157e+000	3.000000e+000
1.789739291405599e-005	2.015861e+000	2.094688e+000	2.089595e+000	3.000000e+000
1.797167862834172e-005	2.015823e+000	2.095239e+000	2.088993e+000	3.000000e+000
1.804596434262744e-005	2.015837e+000	2.095787e+000	2.088350e+000	3.000000e+000
1.812025005691317e-005	2.015902e+000	2.096332e+000	2.087668e+000	3.000000e+000
1.819453577119890e-005	2.016018e+000	2.096873e+000	2.086946e+000	3.000000e+000
1.826882148548462e-005	2.016186e+000	2.097411e+000	2.086183e+000	3.000000e+000
1.834310719977035e-005	2.016405e+000	2.097945e+000	2.085381e+000	3.000000e+000
1.844025005691322e-005	2.016781e+000	2.098634e+000	2.084265e+000	3.000000e+000
1.853739291405609e-005	2.017281e+000	2.099277e+000	2.083097e+000	3.000000e+000
1.863453577119897e-005	2.017904e+000	2.099873e+000	2.081876e+000	3.000000e+000
1.873167862834184e-005	2.018650e+000	2.100423e+000	2.080604e+000	3.000000e+000
1.882882148548471e-005	2.019520e+000	2.100926e+000	2.079279e+000	3.000000e+000
1.892596434262759e-005	2.020513e+000	2.101382e+000	2.077902e+000	3.000000e+000
1.902310719977046e-005	2.021629e+000	2.101791e+000	2.076472e+000	3.000000e+000
1.912882148548476e-005	2.023013e+000	2.102159e+000	2.074862e+000	3.000000e+000
1.923453577119906e-005	2.024562e+000	2.102399e+000	2.073255e+000	3.000000e+000
1.934025005691337e-005	2.026276e+000	2.102512e+000	2.071652e+000	3.000000e+000
1.944596434262767e-005	2.028155e+000	2.102498e+000	2.070053e+000	3.000000e+000
1.955167862834197e-005	2.030198e+000	2.102357e+000	2.068457e+000	3.000000e+000
1.965739291405627e-005	2.032407e+000	2.102089e+000	2.066866e+000	3.000000e+000
1.976310719977058e-005	2.034781e+000	2.101693e+000	2.065279e+000	3.000000e+000
1.986167862834202e-005	2.037154e+000	2.101167e+000	2.063841e+000	3.000000e+000
1.996025005691346e-005	2.039630e+000	2.100471e+000	2.062509e+000	3.000000e+000
2.005882148548491e-005	2.042210e+000	2.099606e+000	2.061281e+000	3.000000e+000
2.015739291405635e-005	2.044893e+000	2.098572e+000	2.060158e+000	3.000000e+000
2.025596434262780e-005	2.047679e+000	2.097369e+000	2.059140e+000	3.000000e+000
2.035453577119924e-005	2.050569e+000	2.095997e+000	2.058226e+000	3.000000e+000
2.045310719977069e-005	2.053562e+000	2.094455e+000	2.057417e+000	3.000000e+000
2.050453577119927e-005	2.055140e+000	2.093569e+000	2.057075e+000	3.000000e+000
2.055596434262785e-005	2.056724e+000	2.092630e+000	2.056787e+000	3.000000e+000
2.060739291405643e-005	2.058315e+000	2.091639e+000	2.056554e+000	3.000000e+000
2.065882148548501e-005	2.059912e+000	2.090596e+000	2.056374e+000	3.000000e+000
2.071025005691358e-005	2.061516e+000	2.089500e+000	2.056249e+000	3.000000e+000
2.076167862834216e-005	2.063127e+000	2.088352e+000	2.056179e+000	3.000000e+000
2.081310719977074e-005	2.064744e+000	2.087152e+000	2.056162e+000	3.000000e+000
2.082310719977075e-005	2.065057e+000	2.086912e+000	2.056168e+000	3.000000e+000
2.089739291405647e-005	2.067403e+000	2.085065e+000	2.056266e+000	3.000000e+000
2.097167862834220e-005	2.069701e+000	2.083114e+000	2.056524e+000	3.000000e+000
2.104596434262792e-005	2.071951e+000	2.081058e+000	2.056942e+000	3.000000e+000
2.112025005691365e-005	2.074154e+000	2.078898e+000	2.057520e+000	3.000000e+000
2.119453577119938e-005	2.076309e+000	2.076635e+000	2.058258e+000	3.000000e+000
2.126882148548510e-005	2.078418e+000	2.074267e+000	2.059156e+000	3.000000e+000
2.134310719977083e-005	2.080478e+000	2.071795e+000	2.060214e+000	3.000000e+000
2.144025005691370e-005	2.083078e+000	2.068390e+000	2.061876e+000	3.000000e+000
2.153739291405657e-005	2.085409e+000	2.064877e+000	2.063891e+000	3.000000e+000
2.163453577119945e-005	2.087469e+000	2.061253e+000	2.066260e+000	3.000000e+000
2.173167862834232e-005	2.089260e+000	2.057519e+000	2.068981e+000	3.000000e+000
2.182882148548519e-005	2.090780e+000	2.053676e+000	2.072056e+000	3.000000e+000
2.192596434262806e-005	2.092031e+000	2.049723e+000	2.075484e+000	3.000000e+000
2.202310719977094e-005	2.093012e+000	2.045660e+000	2.079265e+000	3.000000e+000
2.207882148548523e-005	2.093366e+000	2.043322e+000	2.081614e+000	3.000000e+000
2.213453577119953e-005	2.093568e+000	2.040989e+000	2.084085e+000	3.000000e+000
2.219025005691382e-005	2.093616e+000	2.038662e+000	2.086678e+000	3.000000e+000
2.224596434262812e-005	2.093510e+000	2.036340e+000	2.089391e+000	3.000000e+000
2.230167862834241e-005	2.093251e+000	2.034022e+000	2.092227e+000	3.000000e+000
2.235739291405671e-005	2.092839e+000	2.031710e+000	2.095184e+000	3.000000e+000
2.241310719977100e-005	2.092273e+000	2.029403e+000	2.098262e+000	3.000000e+000
2.249739291405673e-005	2.091102e+000	2.025920e+000	2.103168e+000	3.000000e+000
2.258167862834246e-005	2.089452e+000	2.022581e+000	2.108305e+000	3.000000e+000
2.266596434262818e-005	2.087326e+000	2.019386e+000	2.113674e+000	3.000000e+000
2.275025005691391e-005	2.084721e+000	2.016333e+000	2.119275e+000	3.000000e+000
2.283453577119964e-005	2.081639e+000	2.013424e+000	2.125107e+000	3.000000e+000
2.291882148548537e-005	2.078079e+000	2.010658e+000	2.131171e+000	3.000000e+000
2.300310719977109e-005	2.074041e+000	2.008036e+000	2.137466e+000	3.000000e+000
2.308167862834254e-005	2.069755e+000	2.005807e+000	2.143512e+000	3.000000e+000
2.316025005691398e-005	2.064991e+000	2.003868e+000	2.149644e+000	3.000000e+000
2.323882148548542e-005	2.059749e+000	2.002219e+000	2.155860e+000	3.000000e+000
2.331739291405686e-005	2.054028e+000	2.000860e+000	2.162161e+000	3.000000e+000
2.339596434262830e-005	2.047829e+000	1.999792e+000	2.168546e+000	3.000000e+000
2.347453577119974e-005	2.041151e+000	1.999014e+000	2.175016e+000	3.000000e+000
2.355310719977118e-005	2.033996e+000	1.998526e+000	2.181570e+000	3.000000e+000
2.358310719977119e-005	2.031148e+000	1.998460e+000	2.184054e+000	3.000000e+000
2.360310719977119e-005	2.029216e+000	1.998446e+000	2.185709e+000	3.000000e+000
2.362310719977119e-005	2.027256e+000	1.998457e+000	2.187363e+000	3.000000e+000
2.365310719977120e-005	2.024266e+000	1.998521e+000	2.189842e+000	3.000000e+000
2.367596434262834e-005	2.021946e+000	1.998608e+000	2.191729e+000	3.000000e+000
2.369882148548549e-005	2.019599e+000	1.998729e+000	2.193612e+000	3.000000e+000
2.372167862834264e-005	2.017226e+000	1.998886e+000	2.195489e+000	3.000000e+000
2.374453577119978e-005	2.014826e+000	1.999078e+000	2.197361e+000	3.000000e+000
2.376739291405693e-005	2.012399e+000	1.999304e+000	2.199227e+000	3.000000e+000
2.379025005691408e-005	2.009946e+000	1.999566e+000	2.201089e+000	3.000000e+000
2.381310719977122e-005	2.007467e+000	1.999863e+000	2.202946e+000	3.000000e+000
2.382310719977123e-005	2.006377e+000	2.000004e+000	2.203755e+000	3.000000e+000
2.389882148548552e-005	1.997954e+000	2.001294e+000	2.209901e+000	3.000000e+000
2.397453577119982e-005	1.989434e+000	2.002997e+000	2.215860e+000	3.000000e+000
2.405025005691412e-005	1.980817e+000	2.005114e+000	2.221634e+000	3.000000e+000
2.412596434262842e-005	1.972103e+000	2.007644e+000	2.227221e+000	3.000000e+000
2.420167862834271e-005	1.963293e+000	2.010588e+000	2.232621e+000	3.000000e+000
2.427739291405701e-005	1.954386e+000	2.013946e+000	2.237836e+000	3.000000e+000
2.435310719977131e-005	1.945381e+000	2.017716e+000	2.242864e+000	3.000000e+000
2.444025005691418e-005	1.934998e+000	2.022599e+000	2.248322e+000	3.000000e+000
2.452739291405705e-005	1.924617e+000	2.028014e+000	2.253228e+000	3.000000e+000
2.461453577119992e-005	1.914241e+000	2.033960e+000	2.257582e+000	3.000000e+000
2.470167862834279e-005	1.903868e+000	2.040438e+000	2.261384e+000	3.000000e+000
2.478882148548567e-005	1.893498e+000	2.047448e+000	2.264633e+000	3.000000e+000
2.487596434262854e-005	1.883132e+000	2.054989e+000	2.267330e+000	3.000000e+000
2.496310719977141e-005	1.872770e+000	2.063062e+000	2.269475e+000	3.000000e+000
2.499025005691427e-005	1.869561e+000	2.065664e+000	2.269964e+000	3.000000e+000
2.501739291405713e-005	1.866358e+000	2.068305e+000	2.270379e+000	3.000000e+000
2.504453577119999e-005	1.863160e+000	2.070986e+000	2.270720e+000	3.000000e+000
2.507167862834285e-005	1.859968e+000	2.073707e+000	2.270987e+000	3.000000e+000
2.509882148548571e-005	1.856783e+000	2.076467e+000	2.271179e+000	3.000000e+000
2.512596434262858e-005	1.853603e+000	2.079266e+000	2.271298e+000	3.000000e+000
2.515310719977144e-005	1.850429e+000	2.082105e+000	2.271343e+000	3.000000e+000
2.517310719977144e-005	1.848095e+000	2.084217e+000	2.271323e+000	3.000000e+000
2.522025005691431e-005	1.842605e+000	2.089281e+000	2.271118e+000	3.000000e+000
2.526739291405717e-005	1.837145e+000	2.094428e+000	2.270658e+000	3.000000e+000
2.531453577120003e-005	1.831714e+000	2.099659e+000	2.269942e+000	3.000000e+000
2.536167862834290e-005	1.826312e+000	2.104973e+000	2.268971e+000	3.000000e+000
2.540882148548576e-005	1.820939e+000	2.110372e+000	2.267745e+000	3.000000e+000
2.545596434262863e-005	1.815596e+000	2.115854e+000	2.266264e+000	3.000000e+000
2.550310719977149e-005	1.810282e+000	2.121420e+000	2.264527e+000	3.000000e+000
2.557596434262865e-005	1.802122e+000	2.130163e+000	2.261307e+000	3.000000e+000
2.564882148548580e-005	1.794088e+000	2.139029e+000	2.257421e+000	3.000000e+000
2.572167862834296e-005	1.786180e+000	2.148017e+000	2.252870e+000	3.000000e+000
2.579453577120011e-005	1.778398e+000	2.157128e+000	2.247653e+000	3.000000e+000
2.586739291405727e-005	1.770743e+000	2.166362e+000	2.241771e+000	3.000000e+000
2.594025005691442e-005	1.763213e+000	2.175718e+000	2.235223e+000	3.000000e+000
2.601310719977158e-005	1.755810e+000	2.185197e+000	2.228011e+000	3.000000e+000
2.604310719977158e-005	1.752821e+000	2.189118e+000	2.224837e+000	3.000000e+000
2.607310719977158e-005	1.749870e+000	2.193052e+000	2.221568e+000	3.000000e+000
2.610310719977159e-005	1.746956e+000	2.196999e+000	2.218203e+000	3.000000e+000
2.613310719977159e-005	1.744078e+000	2.200959e+000	2.214741e+000	3.000000e+000
2.616310719977160e-005	1.741238e+000	2.204933e+000	2.211184e+000	3.000000e+000
2.619310719977160e-005	1.738435e+000	2.208920e+000	2.207530e+000	3.000000e+000
2.622310719977161e-005	1.735668e+000	2.212919e+000	2.203780e+000	3.000000e+000
