time	V(b1)	V(b2)	V(b3)	V(vb)
0.000000000000000e+000	1.973572e+000	2.087243e+000	2.090136e+000	5.000000e+000
2.761581713957118e-007	1.973569e+000	2.087241e+000	2.090134e+000	5.000000e+000
5.523163427914236e-007	1.973566e+000	2.087239e+000	2.090131e+000	5.000000e+000
8.284745141871355e-007	1.973563e+000	2.087237e+000	2.090126e+000	5.000000e+000
1.104632685582847e-006	1.973559e+000	2.087234e+000	2.090120e+000	5.000000e+000
1.380790856978559e-006	1.973554e+000	2.087231e+000	2.090113e+000	5.000000e+000
1.656949028374271e-006	1.973549e+000	2.087227e+000	2.090104e+000	5.000000e+000
1.933107199769982e-006	1.973544e+000	2.087222e+000	2.090093e+000	5.000000e+000
2.058821485484267e-006	1.973542e+000	2.087220e+000	2.090089e+000	5.000000e+000
2.184535771198551e-006	1.973540e+000	2.087217e+000	2.090084e+000	5.000000e+000
2.310250056912835e-006	1.973539e+000	2.087215e+000	2.090079e+000	5.000000e+000
2.435964342627120e-006	1.973537e+000	2.087212e+000	2.090074e+000	5.000000e+000
2.561678628341405e-006	1.973537e+000	2.087210e+000	2.090069e+000	5.000000e+000
2.687392914055689e-006	1.973536e+000	2.087207e+000	2.090064e+000	5.000000e+000
2.813107199769974e-006	1.973535e+000	2.087204e+000	2.090059e+000	5.000000e+000
2.823107199769973e-006	1.973535e+000	2.087204e+000	2.090058e+000	5.000000e+000
3.077392914055686e-006	1.973536e+000	2.087197e+000	2.090047e+000	5.000000e+000
3.331678628341397e-006	1.973537e+000	2.087189e+000	2.090037e+000	5.000000e+000
3.585964342627109e-006	1.973538e+000	2.087179e+000	2.090028e+000	5.000000e+000
3.840250056912822e-006	1.973540e+000	2.087169e+000	2.090021e+000	5.000000e+000
4.094535771198533e-006	1.973542e+000	2.087157e+000	2.090015e+000	5.000000e+000
4.348821485484246e-006	1.973545e+000	2.087143e+000	2.090010e+000	5.000000e+000
4.603107199769957e-006	1.973548e+000	2.087129e+000	2.090006e+000	5.000000e+000
4.775964342627098e-006	1.973549e+000	2.087118e+000	2.090005e+000	5.000000e+000
4.948821485484239e-006	1.973550e+000	2.087107e+000	2.090006e+000	5.000000e+000
5.121678628341380e-006	1.973549e+000	2.087095e+000	2.090008e+000	5.000000e+000
5.294535771198522e-006	1.973547e+000	2.087084e+000	2.090012e+000	5.000000e+000
5.467392914055664e-006	1.973543e+000	2.087073e+000	2.090017e+000	5.000000e+000
5.640250056912804e-006	1.973539e+000	2.087061e+000	2.090023e+000	5.000000e+000
5.813107199769945e-006	1.973533e+000	2.087049e+000	2.090031e+000	5.000000e+000
5.823107199769945e-006	1.973532e+000	2.087049e+000	2.090031e+000	5.000000e+000
6.011678628341372e-006	1.973523e+000	2.087036e+000	2.090042e+000	5.000000e+000
6.200250056912799e-006	1.973511e+000	2.087025e+000	2.090054e+000	5.000000e+000
6.388821485484226e-006	1.973495e+000	2.087017e+000	2.090066e+000	5.000000e+000
6.577392914055653e-006	1.973477e+000	2.087010e+000	2.090078e+000	5.000000e+000
6.765964342627079e-006	1.973456e+000	2.087005e+000	2.090092e+000	5.000000e+000
6.954535771198506e-006	1.973431e+000	2.087003e+000	2.090105e+000	5.000000e+000
7.143107199769932e-006	1.973403e+000	2.087003e+000	2.090120e+000	5.000000e+000
7.305964342627074e-006	1.973376e+000	2.087006e+000	2.090132e+000	5.000000e+000
7.468821485484215e-006	1.973348e+000	2.087012e+000	2.090141e+000	5.000000e+000
7.631678628341356e-006	1.973318e+000	2.087022e+000	2.090148e+000	5.000000e+000
7.794535771198498e-006	1.973288e+000	2.087035e+000	2.090152e+000	5.000000e+000
7.957392914055640e-006	1.973256e+000	2.087051e+000	2.090154e+000	5.000000e+000
8.120250056912781e-006	1.973223e+000	2.087070e+000	2.090153e+000	5.000000e+000
8.283107199769922e-006	1.973189e+000	2.087093e+000	2.090149e+000	5.000000e+000
8.358821485484206e-006	1.973174e+000	2.087105e+000	2.090146e+000	5.000000e+000
8.434535771198492e-006	1.973159e+000	2.087117e+000	2.090141e+000	5.000000e+000
8.510250056912776e-006	1.973145e+000	2.087131e+000	2.090135e+000	5.000000e+000
8.585964342627062e-006	1.973131e+000	2.087145e+000	2.090128e+000	5.000000e+000
8.661678628341346e-006	1.973118e+000	2.087159e+000	2.090120e+000	5.000000e+000
8.737392914055632e-006	1.973105e+000	2.087175e+000	2.090111e+000	5.000000e+000
8.813107199769916e-006	1.973093e+000	2.087191e+000	2.090100e+000	5.000000e+000
8.823107199769916e-006	1.973091e+000	2.087193e+000	2.090099e+000	5.000000e+000
8.965964342627058e-006	1.973069e+000	2.087226e+000	2.090075e+000	5.000000e+000
9.108821485484199e-006	1.973052e+000	2.087259e+000	2.090046e+000	5.000000e+000
9.251678628341341e-006	1.973041e+000	2.087293e+000	2.090012e+000	5.000000e+000
9.394535771198483e-006	1.973035e+000	2.087327e+000	2.089973e+000	5.000000e+000
9.537392914055625e-006	1.973035e+000	2.087362e+000	2.089928e+000	5.000000e+000
9.680250056912767e-006	1.973040e+000	2.087397e+000	2.089879e+000	5.000000e+000
9.823107199769907e-006	1.973050e+000	2.087432e+000	2.089824e+000	5.000000e+000
9.953107199769906e-006	1.973067e+000	2.087463e+000	2.089769e+000	5.000000e+000
1.008310719976990e-005	1.973092e+000	2.087490e+000	2.089711e+000	5.000000e+000
1.021310719976990e-005	1.973125e+000	2.087514e+000	2.089650e+000	5.000000e+000
1.034310719976990e-005	1.973166e+000	2.087533e+000	2.089587e+000	5.000000e+000
1.047310719976990e-005	1.973216e+000	2.087548e+000	2.089521e+000	5.000000e+000
1.060310719976990e-005	1.973273e+000	2.087559e+000	2.089452e+000	5.000000e+000
1.073310719976990e-005	1.973338e+000	2.087566e+000	2.089381e+000	5.000000e+000
1.085310719976990e-005	1.973408e+000	2.087567e+000	2.089314e+000	5.000000e+000
1.097310719976990e-005	1.973484e+000	2.087559e+000	2.089250e+000	5.000000e+000
1.109310719976990e-005	1.973567e+000	2.087544e+000	2.089188e+000	5.000000e+000
1.121310719976989e-005	1.973657e+000	2.087521e+000	2.089129e+000	5.000000e+000
1.133310719976989e-005	1.973753e+000	2.087490e+000	2.089073e+000	5.000000e+000
1.145310719976989e-005	1.973857e+000	2.087452e+000	2.089019e+000	5.000000e+000
1.157310719976989e-005	1.973967e+000	2.087405e+000	2.088968e+000	5.000000e+000
1.160739291405561e-005	1.973999e+000	2.087390e+000	2.088955e+000	5.000000e+000
1.164167862834132e-005	1.974031e+000	2.087374e+000	2.088943e+000	5.000000e+000
1.167596434262703e-005	1.974064e+000	2.087357e+000	2.088932e+000	5.000000e+000
1.171025005691275e-005	1.974097e+000	2.087339e+000	2.088921e+000	5.000000e+000
1.174453577119846e-005	1.974131e+000	2.087321e+000	2.088910e+000	5.000000e+000
1.177882148548417e-005	1.974165e+000	2.087301e+000	2.088900e+000	5.000000e+000
1.181310719976989e-005	1.974199e+000	2.087281e+000	2.088891e+000	5.000000e+000
1.182310719976989e-005	1.974209e+000	2.087275e+000	2.088889e+000	5.000000e+000
1.194025005691274e-005	1.974331e+000	2.087198e+000	2.088861e+000	5.000000e+000
1.205739291405560e-005	1.974452e+000	2.087111e+000	2.088846e+000	5.000000e+000
1.217453577119846e-005	1.974571e+000	2.087015e+000	2.088843e+000	5.000000e+000
1.229167862834131e-005	1.974688e+000	2.086909e+000	2.088852e+000	5.000000e+000
1.240882148548417e-005	1.974804e+000	2.086792e+000	2.088874e+000	5.000000e+000
1.252596434262702e-005	1.974918e+000	2.086666e+000	2.088908e+000	5.000000e+000
1.264310719976988e-005	1.975031e+000	2.086530e+000	2.088955e+000	5.000000e+000
1.275310719976988e-005	1.975131e+000	2.086393e+000	2.089015e+000	5.000000e+000
1.286310719976988e-005	1.975218e+000	2.086250e+000	2.089091e+000	5.000000e+000
1.297310719976988e-005	1.975293e+000	2.086103e+000	2.089184e+000	5.000000e+000
1.308310719976988e-005	1.975355e+000	2.085951e+000	2.089293e+000	5.000000e+000
1.319310719976988e-005	1.975405e+000	2.085794e+000	2.089419e+000	5.000000e+000
1.330310719976987e-005	1.975442e+000	2.085631e+000	2.089562e+000	5.000000e+000
1.341310719976987e-005	1.975467e+000	2.085464e+000	2.089721e+000	5.000000e+000
1.351453577119844e-005	1.975472e+000	2.085309e+000	2.089885e+000	5.000000e+000
1.361596434262701e-005	1.975456e+000	2.085157e+000	2.090063e+000	5.000000e+000
1.371739291405558e-005	1.975419e+000	2.085010e+000	2.090256e+000	5.000000e+000
1.381882148548416e-005	1.975360e+000	2.084867e+000	2.090463e+000	5.000000e+000
1.392025005691272e-005	1.975280e+000	2.084728e+000	2.090684e+000	5.000000e+000
1.402167862834130e-005	1.975178e+000	2.084594e+000	2.090919e+000	5.000000e+000
1.412310719976987e-005	1.975055e+000	2.084464e+000	2.091169e+000	5.000000e+000
1.422167862834129e-005	1.974910e+000	2.084346e+000	2.091425e+000	5.000000e+000
1.432025005691272e-005	1.974736e+000	2.084245e+000	2.091687e+000	5.000000e+000
1.441882148548415e-005	1.974536e+000	2.084159e+000	2.091956e+000	5.000000e+000
1.451739291405558e-005	1.974309e+000	2.084089e+000	2.092231e+000	5.000000e+000
1.461596434262700e-005	1.974054e+000	2.084036e+000	2.092512e+000	5.000000e+000
1.471453577119843e-005	1.973772e+000	2.083998e+000	2.092800e+000	5.000000e+000
1.481310719976986e-005	1.973463e+000	2.083977e+000	2.093094e+000	5.000000e+000
1.482310719976986e-005	1.973430e+000	2.083976e+000	2.093124e+000	5.000000e+000
1.491739291405558e-005	1.973102e+000	2.083980e+000	2.093407e+000	5.000000e+000
1.501167862834130e-005	1.972750e+000	2.084010e+000	2.093682e+000	5.000000e+000
1.510596434262702e-005	1.972374e+000	2.084068e+000	2.093948e+000	5.000000e+000
1.520025005691273e-005	1.971974e+000	2.084152e+000	2.094206e+000	5.000000e+000
1.529453577119845e-005	1.971550e+000	2.084262e+000	2.094456e+000	5.000000e+000
1.538882148548417e-005	1.971102e+000	2.084400e+000	2.094697e+000	5.000000e+000
1.548310719976989e-005	1.970630e+000	2.084565e+000	2.094929e+000	5.000000e+000
1.558453577119848e-005	1.970095e+000	2.084779e+000	2.095163e+000	5.000000e+000
1.568596434262707e-005	1.969547e+000	2.085035e+000	2.095361e+000	5.000000e+000
1.578739291405565e-005	1.968988e+000	2.085331e+000	2.095525e+000	5.000000e+000
1.588882148548424e-005	1.968416e+000	2.085669e+000	2.095654e+000	5.000000e+000
1.599025005691283e-005	1.967832e+000	2.086048e+000	2.095748e+000	5.000000e+000
1.609167862834142e-005	1.967236e+000	2.086468e+000	2.095807e+000	5.000000e+000
1.619310719977001e-005	1.966628e+000	2.086929e+000	2.095832e+000	5.000000e+000
1.628025005691288e-005	1.966106e+000	2.087362e+000	2.095811e+000	5.000000e+000
1.636739291405575e-005	1.965600e+000	2.087825e+000	2.095745e+000	5.000000e+000
1.645453577119862e-005	1.965108e+000	2.088317e+000	2.095633e+000	5.000000e+000
1.654167862834149e-005	1.964631e+000	2.088838e+000	2.095475e+000	5.000000e+000
1.662882148548436e-005	1.964169e+000	2.089388e+000	2.095271e+000	5.000000e+000
1.671596434262723e-005	1.963722e+000	2.089968e+000	2.095023e+000	5.000000e+000
1.680310719977010e-005	1.963290e+000	2.090576e+000	2.094728e+000	5.000000e+000
1.690310719977012e-005	1.962824e+000	2.091313e+000	2.094321e+000	5.000000e+000
1.700310719977013e-005	1.962424e+000	2.092068e+000	2.093836e+000	5.000000e+000
1.710310719977015e-005	1.962090e+000	2.092842e+000	2.093271e+000	5.000000e+000
1.720310719977017e-005	1.961823e+000	2.093634e+000	2.092627e+000	5.000000e+000
1.730310719977018e-005	1.961621e+000	2.094444e+000	2.091904e+000	5.000000e+000
1.740310719977020e-005	1.961486e+000	2.095273e+000	2.091101e+000	5.000000e+000
1.750310719977021e-005	1.961418e+000	2.096120e+000	2.090220e+000	5.000000e+000
1.753310719977022e-005	1.961421e+000	2.096370e+000	2.089938e+000	5.000000e+000
1.757310719977023e-005	1.961437e+000	2.096705e+000	2.089551e+000	5.000000e+000
1.761310719977023e-005	1.961471e+000	2.097038e+000	2.089151e+000	5.000000e+000
1.765310719977024e-005	1.961523e+000	2.097369e+000	2.088738e+000	5.000000e+000
1.769310719977025e-005	1.961591e+000	2.097697e+000	2.088311e+000	5.000000e+000
1.773310719977025e-005	1.961677e+000	2.098024e+000	2.087872e+000	5.000000e+000
1.777310719977026e-005	1.961780e+000	2.098348e+000	2.087420e+000	5.000000e+000
1.781310719977026e-005	1.961900e+000	2.098670e+000	2.086955e+000	5.000000e+000
1.782310719977027e-005	1.961933e+000	2.098750e+000	2.086837e+000	5.000000e+000
1.791596434262742e-005	1.962288e+000	2.099496e+000	2.085692e+000	5.000000e+000
1.800882148548458e-005	1.962765e+000	2.100194e+000	2.084492e+000	5.000000e+000
1.810167862834174e-005	1.963363e+000	2.100843e+000	2.083237e+000	5.000000e+000
1.819453577119890e-005	1.964083e+000	2.101445e+000	2.081928e+000	5.000000e+000
1.828739291405605e-005	1.964925e+000	2.101999e+000	2.080564e+000	5.000000e+000
1.838025005691321e-005	1.965888e+000	2.102504e+000	2.079145e+000	5.000000e+000
1.847310719977037e-005	1.966973e+000	2.102962e+000	2.077671e+000	5.000000e+000
1.857453577119896e-005	1.968326e+000	2.103381e+000	2.076003e+000	5.000000e+000
1.867596434262755e-005	1.969845e+000	2.103665e+000	2.074335e+000	5.000000e+000
1.877739291405613e-005	1.971530e+000	2.103815e+000	2.072668e+000	5.000000e+000
1.887882148548472e-005	1.973380e+000	2.103832e+000	2.071001e+000	5.000000e+000
1.898025005691331e-005	1.975397e+000	2.103714e+000	2.069336e+000	5.000000e+000
1.908167862834190e-005	1.977579e+000	2.103462e+000	2.067671e+000	5.000000e+000
1.918310719977048e-005	1.979927e+000	2.103076e+000	2.066007e+000	5.000000e+000
1.927739291405621e-005	1.982270e+000	2.102551e+000	2.064501e+000	5.000000e+000
1.937167862834194e-005	1.984719e+000	2.101846e+000	2.063099e+000	5.000000e+000
1.946596434262767e-005	1.987274e+000	2.100963e+000	2.061799e+000	5.000000e+000
1.956025005691340e-005	1.989936e+000	2.099900e+000	2.060603e+000	5.000000e+000
1.965453577119913e-005	1.992705e+000	2.098657e+000	2.059511e+000	5.000000e+000
1.974882148548486e-005	1.995580e+000	2.097235e+000	2.058522e+000	5.000000e+000
1.984310719977059e-005	1.998561e+000	2.095634e+000	2.057636e+000	5.000000e+000
1.994025005691346e-005	2.001728e+000	2.093757e+000	2.056889e+000	5.000000e+000
2.003739291405633e-005	2.004887e+000	2.091661e+000	2.056391e+000	5.000000e+000
2.013453577119921e-005	2.008039e+000	2.089348e+000	2.056140e+000	5.000000e+000
2.023167862834208e-005	2.011184e+000	2.086816e+000	2.056137e+000	5.000000e+000
2.032882148548495e-005	2.014321e+000	2.084065e+000	2.056382e+000	5.000000e+000
2.042596434262782e-005	2.017451e+000	2.081096e+000	2.056875e+000	5.000000e+000
2.052310719977070e-005	2.020573e+000	2.077909e+000	2.057616e+000	5.000000e+000
2.056453577119928e-005	2.021855e+000	2.076486e+000	2.058046e+000	5.000000e+000
2.060596434262785e-005	2.023111e+000	2.075028e+000	2.058539e+000	5.000000e+000
2.064739291405643e-005	2.024339e+000	2.073534e+000	2.059095e+000	5.000000e+000
2.068882148548501e-005	2.025541e+000	2.072006e+000	2.059713e+000	5.000000e+000
2.073025005691359e-005	2.026715e+000	2.070442e+000	2.060394e+000	5.000000e+000
2.077167862834217e-005	2.027863e+000	2.068843e+000	2.061138e+000	5.000000e+000
2.081310719977074e-005	2.028983e+000	2.067209e+000	2.061944e+000	5.000000e+000
2.082310719977075e-005	2.029247e+000	2.066810e+000	2.062150e+000	5.000000e+000
2.091882148548505e-005	2.031749e+000	2.062849e+000	2.064297e+000	5.000000e+000
2.101453577119935e-005	2.033925e+000	2.058786e+000	2.066839e+000	5.000000e+000
2.111025005691365e-005	2.035777e+000	2.054621e+000	2.069776e+000	5.000000e+000
2.120596434262795e-005	2.037303e+000	2.050354e+000	2.073109e+000	5.000000e+000
2.130167862834225e-005	2.038505e+000	2.045984e+000	2.076836e+000	5.000000e+000
2.139739291405655e-005	2.039381e+000	2.041512e+000	2.080959e+000	5.000000e+000
2.149310719977085e-005	2.039933e+000	2.036938e+000	2.085477e+000	5.000000e+000
2.152310719977086e-005	2.039983e+000	2.035519e+000	2.086982e+000	5.000000e+000
2.153310719977086e-005	2.039989e+000	2.035046e+000	2.087492e+000	5.000000e+000
2.154310719977086e-005	2.039990e+000	2.034573e+000	2.088007e+000	5.000000e+000
2.156310719977086e-005	2.039977e+000	2.033627e+000	2.089050e+000	5.000000e+000
2.159310719977087e-005	2.039916e+000	2.032210e+000	2.090647e+000	5.000000e+000
2.166310719977088e-005	2.039617e+000	2.028875e+000	2.094541e+000	5.000000e+000
2.173310719977089e-005	2.038998e+000	2.025606e+000	2.098635e+000	5.000000e+000
2.180310719977090e-005	2.038060e+000	2.022402e+000	2.102930e+000	5.000000e+000
2.187310719977091e-005	2.036803e+000	2.019264e+000	2.107425e+000	5.000000e+000
2.194310719977092e-005	2.035226e+000	2.016192e+000	2.112121e+000	5.000000e+000
2.201310719977094e-005	2.033329e+000	2.013185e+000	2.117017e+000	5.000000e+000
2.208310719977095e-005	2.031113e+000	2.010244e+000	2.122113e+000	5.000000e+000
2.216167862834239e-005	2.028175e+000	2.007069e+000	2.128072e+000	5.000000e+000
2.224025005691383e-005	2.024736e+000	2.004148e+000	2.134190e+000	5.000000e+000
2.231882148548527e-005	2.020796e+000	2.001479e+000	2.140467e+000	5.000000e+000
2.239739291405671e-005	2.016354e+000	1.999064e+000	2.146902e+000	5.000000e+000
2.247596434262815e-005	2.011410e+000	1.996903e+000	2.153496e+000	5.000000e+000
2.255453577119959e-005	2.005966e+000	1.994994e+000	2.160249e+000	5.000000e+000
2.263310719977103e-005	2.000020e+000	1.993339e+000	2.167161e+000	5.000000e+000
2.267025005691390e-005	1.997015e+000	1.992705e+000	2.170439e+000	5.000000e+000
2.270739291405676e-005	1.993904e+000	1.992158e+000	2.173725e+000	5.000000e+000
2.274453577119962e-005	1.990688e+000	1.991701e+000	2.177019e+000	5.000000e+000
2.278167862834249e-005	1.987366e+000	1.991333e+000	2.180321e+000	5.000000e+000
2.281882148548535e-005	1.983938e+000	1.991053e+000	2.183630e+000	5.000000e+000
2.285596434262821e-005	1.980405e+000	1.990862e+000	2.186947e+000	5.000000e+000
2.289310719977108e-005	1.976766e+000	1.990759e+000	2.190272e+000	5.000000e+000
2.291310719977108e-005	1.974776e+000	1.990748e+000	2.192058e+000	5.000000e+000
2.293310719977108e-005	1.972763e+000	1.990766e+000	2.193842e+000	5.000000e+000
2.296739291405680e-005	1.969246e+000	1.990860e+000	2.196903e+000	5.000000e+000
2.300167862834252e-005	1.965686e+000	1.991044e+000	2.199950e+000	5.000000e+000
2.303596434262824e-005	1.962082e+000	1.991317e+000	2.202983e+000	5.000000e+000
2.307025005691396e-005	1.958435e+000	1.991678e+000	2.206003e+000	5.000000e+000
2.310453577119968e-005	1.954744e+000	1.992129e+000	2.209008e+000	5.000000e+000
2.313882148548540e-005	1.951009e+000	1.992668e+000	2.212000e+000	5.000000e+000
2.317310719977112e-005	1.947232e+000	1.993296e+000	2.214978e+000	5.000000e+000
2.326453577119971e-005	1.936989e+000	1.995423e+000	2.222927e+000	5.000000e+000
2.335596434262829e-005	1.926660e+000	1.998210e+000	2.230517e+000	5.000000e+000
2.344739291405688e-005	1.916244e+000	2.001658e+000	2.237750e+000	5.000000e+000
2.353882148548547e-005	1.905743e+000	2.005766e+000	2.244625e+000	5.000000e+000
2.363025005691405e-005	1.895155e+000	2.010536e+000	2.251142e+000	5.000000e+000
2.372167862834264e-005	1.884482e+000	2.015966e+000	2.257300e+000	5.000000e+000
2.381310719977122e-005	1.873722e+000	2.022057e+000	2.263101e+000	5.000000e+000
2.382310719977123e-005	1.872550e+000	2.022762e+000	2.263686e+000	5.000000e+000
2.388596434262838e-005	1.865170e+000	2.027400e+000	2.267252e+000	5.000000e+000
2.394882148548553e-005	1.857800e+000	2.032316e+000	2.270480e+000	5.000000e+000
2.401167862834268e-005	1.850439e+000	2.037510e+000	2.273370e+000	5.000000e+000
2.407453577119984e-005	1.843089e+000	2.042980e+000	2.275922e+000	5.000000e+000
2.413739291405699e-005	1.835748e+000	2.048729e+000	2.278136e+000	5.000000e+000
2.420025005691414e-005	1.828417e+000	2.054754e+000	2.280012e+000	5.000000e+000
2.426310719977130e-005	1.821096e+000	2.061057e+000	2.281550e+000	5.000000e+000
2.429025005691416e-005	1.817946e+000	2.063836e+000	2.282075e+000	5.000000e+000
2.431739291405702e-005	1.814801e+000	2.066651e+000	2.282520e+000	5.000000e+000
2.434453577119988e-005	1.811663e+000	2.069503e+000	2.282886e+000	5.000000e+000
2.437167862834274e-005	1.808530e+000	2.072391e+000	2.283174e+000	5.000000e+000
2.439882148548560e-005	1.805403e+000	2.075316e+000	2.283382e+000	5.000000e+000
2.442596434262846e-005	1.802282e+000	2.078276e+000	2.283512e+000	5.000000e+000
2.445310719977133e-005	1.799167e+000	2.081274e+000	2.283562e+000	5.000000e+000
2.447310719977133e-005	1.796876e+000	2.083500e+000	2.283545e+000	5.000000e+000
2.452167862834277e-005	1.791325e+000	2.088990e+000	2.283324e+000	5.000000e+000
2.457025005691420e-005	1.785805e+000	2.094561e+000	2.282819e+000	5.000000e+000
2.461882148548564e-005	1.780315e+000	2.100214e+000	2.282029e+000	5.000000e+000
